Title: kicad schematic
Date: Fri Oct 17 12:56:59  2025
Plotname: Transient Analysis
Flags: real
No. Variables: 67
No. Points: 108     
Variables:
	0	time	time
	1	v(g)	voltage
	2	v(net-_r2-pad2_)	voltage
	3	v(e)	voltage
	4	v(com)	voltage
	5	v(x1.net-_q10-pad2_)	voltage
	6	v(x1.net-_q10-pad3_)	voltage
	7	v(net-_x1-pad5_)	voltage
	8	v(net-_x1-pad6_)	voltage
	9	v(x1.net-_q11-pad2_)	voltage
	10	v(f)	voltage
	11	v(x1.net-_q11-pad3_)	voltage
	12	v(x1.net-_q12-pad2_)	voltage
	13	v(net-_x1-pad7_)	voltage
	14	v(x1.net-_q9-pad2_)	voltage
	15	v(c)	voltage
	16	v(x1.net-_q3-pad3_)	voltage
	17	v(d)	voltage
	18	v(x1.net-_q4-pad3_)	voltage
	19	v(a)	voltage
	20	v(b)	voltage
	21	v(x1.net-_q2-pad3_)	voltage
	22	v(x1.net-_q1-pad2_)	voltage
	23	v(x1.net-_q1-pad3_)	voltage
	24	v(x1.net-_q2-pad2_)	voltage
	25	v(net-_x1-pad1_)	voltage
	26	v(net-_x1-pad2_)	voltage
	27	v(x1.net-_q3-pad2_)	voltage
	28	v(net-_x1-pad3_)	voltage
	29	v(x1.net-_q4-pad2_)	voltage
	30	v(net-_x1-pad4_)	voltage
	31	v(net-_r1-pad2_)	voltage
	32	v(net-_r3-pad2_)	voltage
	33	v(net-_r4-pad2_)	voltage
	34	v(net-_r5-pad2_)	voltage
	35	v(net-_r6-pad2_)	voltage
	36	v(net-_r7-pad2_)	voltage
	37	v(net-_r8-pad2_)	voltage
	38	v(q.x1.q4#collCX)	voltage
	39	v(q.x1.q3#collCX)	voltage
	40	v(q.x1.q2#collCX)	voltage
	41	v(q.x1.q5#collCX)	voltage
	42	v(q.x1.q1#collCX)	voltage
	43	v(q.x1.q6#collCX)	voltage
	44	v(q.x1.q8#collCX)	voltage
	45	v(q.x1.q7#collCX)	voltage
	46	v(q.x1.q9#collCX)	voltage
	47	v(q.x1.q12#collCX)	voltage
	48	v(q.x1.q11#collCX)	voltage
	49	v(q.x1.q14#collCX)	voltage
	50	v(q.x1.q13#collCX)	voltage
	51	v(q.x1.q10#collCX)	voltage
	52	i(v_u7)	current
	53	i(v_u8)	current
	54	i(v_u6)	current
	55	i(v_u5)	current
	56	i(v_u1)	current
	57	i(v_u2)	current
	58	i(v_u3)	current
	59	i(v_u4)	current
	60	i(v7)	current
	61	i(v6)	current
	62	i(v5)	current
	63	i(v4)	current
	64	i(v3)	current
	65	i(v1)	current
	66	i(v2)	current
Values:
0		0.000000000000000e+00
	4.089969628996910e-01
	0.000000000000000e+00
	2.882629677006818e-01
	2.386937548139054e-02
	9.515381541820171e-01
	2.886206486941394e-01
	5.000000000000000e+00
	6.000000000000000e+00
	1.022856280782358e+00
	3.518842714365489e-01
	3.520869758959515e-01
	4.091494087409083e-01
	7.000000000000000e+00
	1.086329824023524e+00
	1.570121800819155e-01
	1.586470419663520e-01
	2.227810954809203e-01
	2.234888566616350e-01
	2.354162847816948e-03
	9.118193976854132e-02
	9.779312604149749e-02
	4.879470319808646e-01
	1.392412799868450e-01
	7.002164462478585e-01
	1.000000000000000e+00
	2.000000000000000e+00
	7.955715412665295e-01
	3.000000000000000e+00
	8.760572032576337e-01
	4.000000000000000e+00
	0.000000000000000e+00
	0.000000000000000e+00
	0.000000000000000e+00
	0.000000000000000e+00
	0.000000000000000e+00
	0.000000000000000e+00
	0.000000000000000e+00
	2.230041175456670e-01
	1.571692433002065e-01
	9.127313096929965e-02
	2.354162848145955e-03
	2.356516035537137e-03
	9.118193976784709e-02
	2.227810953995949e-01
	1.570121800751631e-01
	4.094237835930519e-01
	4.089968566019289e-01
	3.522409222904662e-01
	3.518842597305812e-01
	2.882629666940816e-01
	2.885523285363593e-01
	9.118193976854131e-05
	2.354162847816948e-06
	1.570121800819155e-04
	2.227810954809203e-04
	2.386937548139054e-05
	4.089969628996910e-04
	3.518842714365489e-04
	2.882629677006818e-04
	-5.632066834263311e-04
	-4.740136875445374e-04
	-3.855677948398079e-04
	-2.975183615945111e-04
	-2.099455674984258e-04
	-4.876694933515575e-05
	-1.237889098811563e-04
1		1.000000000000000e-05
	4.089969628995775e-01
	0.000000000000000e+00
	2.882629677007607e-01
	2.386937548137694e-02
	9.515381541820949e-01
	2.886206486942178e-01
	5.000000000000000e+00
	6.000000000000000e+00
	1.022856280782378e+00
	3.518842714365701e-01
	3.520869758959727e-01
	4.091494087407950e-01
	7.000000000000000e+00
	1.086329824023411e+00
	1.570121800819740e-01
	1.586470419664101e-01
	2.227810954809781e-01
	2.234888566616922e-01
	2.354162847819004e-03
	9.118193976855049e-02
	9.779312604150470e-02
	4.879470319808800e-01
	1.392412799868435e-01
	7.002164462478757e-01
	1.000000000000000e+00
	2.000000000000000e+00
	7.955715412665859e-01
	3.000000000000000e+00
	8.760572032576922e-01
	4.000000000000000e+00
	0.000000000000000e+00
	0.000000000000000e+00
	0.000000000000000e+00
	0.000000000000000e+00
	0.000000000000000e+00
	0.000000000000000e+00
	0.000000000000000e+00
	2.230041175457248e-01
	1.571692433002650e-01
	9.127313096930884e-02
	2.354162848148012e-03
	2.356516035539196e-03
	9.118193976785627e-02
	2.227810953996528e-01
	1.570121800752217e-01
	4.094237835929385e-01
	4.089968566018154e-01
	3.522409222904873e-01
	3.518842597306023e-01
	2.882629666941604e-01
	2.885523285364381e-01
	9.118193976855049e-05
	2.354162847819004e-06
	1.570121800819740e-04
	2.227810954809781e-04
	2.386937548137694e-05
	4.089969628995775e-04
	3.518842714365701e-04
	2.882629677007607e-04
	-5.632066834263418e-04
	-4.740136875445354e-04
	-3.855677948398005e-04
	-2.975183615945055e-04
	-2.099455674984204e-04
	-4.876694933515428e-05
	-1.237889098811547e-04
2		2.000000000000001e-05
	4.089969628995438e-01
	0.000000000000000e+00
	2.882629677007029e-01
	2.386937548136516e-02
	9.515381541820380e-01
	2.886206486941603e-01
	5.000000000000000e+00
	6.000000000000000e+00
	1.022856280782350e+00
	3.518842714365413e-01
	3.520869758959439e-01
	4.091494087407614e-01
	7.000000000000000e+00
	1.086329824023378e+00
	1.570121800819692e-01
	1.586470419664049e-01
	2.227810954809862e-01
	2.234888566617005e-01
	2.354162847818737e-03
	9.118193976855477e-02
	9.779312604150882e-02
	4.879470319808805e-01
	1.392412799868436e-01
	7.002164462478792e-01
	1.000000000000000e+00
	2.000000000000000e+00
	7.955715412665837e-01
	3.000000000000000e+00
	8.760572032576994e-01
	4.000000000000000e+00
	0.000000000000000e+00
	0.000000000000000e+00
	0.000000000000000e+00
	0.000000000000000e+00
	0.000000000000000e+00
	0.000000000000000e+00
	0.000000000000000e+00
	2.230041175457329e-01
	1.571692433002601e-01
	9.127313096931312e-02
	2.354162848147745e-03
	2.356516035538928e-03
	9.118193976786054e-02
	2.227810953996609e-01
	1.570121800752168e-01
	4.094237835929049e-01
	4.089968566017818e-01
	3.522409222904583e-01
	3.518842597305735e-01
	2.882629666941026e-01
	2.885523285363804e-01
	9.118193976855477e-05
	2.354162847818737e-06
	1.570121800819692e-04
	2.227810954809862e-04
	2.386937548136516e-05
	4.089969628995439e-04
	3.518842714365413e-04
	2.882629677007029e-04
	-5.632066834263449e-04
	-4.740136875445381e-04
	-3.855677948398059e-04
	-2.975183615945048e-04
	-2.099455674984206e-04
	-4.876694933515424e-05
	-1.237889098811544e-04
3		4.000000000000001e-05
	4.089969628993540e-01
	0.000000000000000e+00
	2.882629677006672e-01
	2.386937548131293e-02
	9.515381541820016e-01
	2.886206486941247e-01
	5.000000000000000e+00
	6.000000000000000e+00
	1.022856280782325e+00
	3.518842714365161e-01
	3.520869758959189e-01
	4.091494087405719e-01
	7.000000000000000e+00
	1.086329824023189e+00
	1.570121800819657e-01
	1.586470419664015e-01
	2.227810954810121e-01
	2.234888566617263e-01
	2.354162847820083e-03
	9.118193976854978e-02
	9.779312604150481e-02
	4.879470319808975e-01
	1.392412799868460e-01
	7.002164462478725e-01
	1.000000000000000e+00
	2.000000000000000e+00
	7.955715412665809e-01
	3.000000000000000e+00
	8.760572032577248e-01
	4.000000000000000e+00
	0.000000000000000e+00
	0.000000000000000e+00
	0.000000000000000e+00
	0.000000000000000e+00
	0.000000000000000e+00
	0.000000000000000e+00
	0.000000000000000e+00
	2.230041175457588e-01
	1.571692433002567e-01
	9.127313096930813e-02
	2.354162848149091e-03
	2.356516035540276e-03
	9.118193976785556e-02
	2.227810953996868e-01
	1.570121800752134e-01
	4.094237835927150e-01
	4.089968566015919e-01
	3.522409222904332e-01
	3.518842597305483e-01
	2.882629666940669e-01
	2.885523285363446e-01
	9.118193976854978e-05
	2.354162847820083e-06
	1.570121800819657e-04
	2.227810954810121e-04
	2.386937548131293e-05
	4.089969628993540e-04
	3.518842714365161e-04
	2.882629677006672e-04
	-5.632066834263629e-04
	-4.740136875445405e-04
	-3.855677948398094e-04
	-2.975183615945024e-04
	-2.099455674984209e-04
	-4.876694933515262e-05
	-1.237889098811550e-04
4		8.000000000000002e-05
	4.089969628995291e-01
	0.000000000000000e+00
	2.882629677007814e-01
	2.386937548137079e-02
	9.515381541821165e-01
	2.886206486942386e-01
	5.000000000000000e+00
	6.000000000000000e+00
	1.022856280782469e+00
	3.518842714366621e-01
	3.520869758960644e-01
	4.091494087407470e-01
	7.000000000000000e+00
	1.086329824023363e+00
	1.570121800819353e-01
	1.586470419663716e-01
	2.227810954809136e-01
	2.234888566616286e-01
	2.354162847815968e-03
	9.118193976856913e-02
	9.779312604152521e-02
	4.879470319808557e-01
	1.392412799868415e-01
	7.002164462478819e-01
	1.000000000000000e+00
	2.000000000000000e+00
	7.955715412665484e-01
	3.000000000000000e+00
	8.760572032576287e-01
	4.000000000000000e+00
	0.000000000000000e+00
	0.000000000000000e+00
	0.000000000000000e+00
	0.000000000000000e+00
	0.000000000000000e+00
	0.000000000000000e+00
	0.000000000000000e+00
	2.230041175456603e-01
	1.571692433002263e-01
	9.127313096932745e-02
	2.354162848144976e-03
	2.356516035536158e-03
	9.118193976787491e-02
	2.227810953995883e-01
	1.570121800751829e-01
	4.094237835928901e-01
	4.089968566017670e-01
	3.522409222905792e-01
	3.518842597306943e-01
	2.882629666941812e-01
	2.885523285364588e-01
	9.118193976856914e-05
	2.354162847815968e-06
	1.570121800819354e-04
	2.227810954809136e-04
	2.386937548137079e-05
	4.089969628995292e-04
	3.518842714366621e-04
	2.882629677007814e-04
	-5.632066834263463e-04
	-4.740136875445268e-04
	-3.855677948397984e-04
	-2.975183615945116e-04
	-2.099455674984240e-04
	-4.876694933515660e-05
	-1.237889098811541e-04
5		1.600000000000000e-04
	4.089969628996996e-01
	0.000000000000000e+00
	2.882629677007989e-01
	2.386937548142105e-02
	9.515381541821332e-01
	2.886206486942561e-01
	5.000000000000000e+00
	6.000000000000000e+00
	1.022856280782536e+00
	3.518842714367277e-01
	3.520869758961297e-01
	4.091494087409169e-01
	7.000000000000000e+00
	1.086329824023533e+00
	1.570121800819388e-01
	1.586470419663750e-01
	2.227810954810483e-01
	2.234888566617622e-01
	2.354162847818559e-03
	9.118193976853836e-02
	9.779312604149441e-02
	4.879470319808916e-01
	1.392412799868526e-01
	7.002164462478566e-01
	1.000000000000000e+00
	2.000000000000000e+00
	7.955715412665539e-01
	3.000000000000000e+00
	8.760572032577615e-01
	4.000000000000000e+00
	0.000000000000000e+00
	0.000000000000000e+00
	0.000000000000000e+00
	0.000000000000000e+00
	0.000000000000000e+00
	0.000000000000000e+00
	0.000000000000000e+00
	2.230041175457950e-01
	1.571692433002298e-01
	9.127313096929671e-02
	2.354162848147566e-03
	2.356516035538751e-03
	9.118193976784413e-02
	2.227810953997230e-01
	1.570121800751864e-01
	4.094237835930607e-01
	4.089968566019375e-01
	3.522409222906449e-01
	3.518842597307600e-01
	2.882629666941987e-01
	2.885523285364764e-01
	9.118193976853836e-05
	2.354162847818559e-06
	1.570121800819389e-04
	2.227810954810483e-04
	2.386937548142106e-05
	4.089969628996995e-04
	3.518842714367278e-04
	2.882629677007989e-04
	-5.632066834263302e-04
	-4.740136875445205e-04
	-3.855677948397968e-04
	-2.975183615944989e-04
	-2.099455674984235e-04
	-4.876694933515318e-05
	-1.237889098811565e-04
6		3.200000000000001e-04
	4.089969628995613e-01
	0.000000000000000e+00
	2.882629677006977e-01
	2.386937548137132e-02
	9.515381541820329e-01
	2.886206486941553e-01
	5.000000000000000e+00
	6.000000000000000e+00
	1.022856280782376e+00
	3.518842714365676e-01
	3.520869758959702e-01
	4.091494087407788e-01
	7.000000000000000e+00
	1.086329824023394e+00
	1.570121800819213e-01
	1.586470419663578e-01
	2.227810954809508e-01
	2.234888566616654e-01
	2.354162847818348e-03
	9.118193976854888e-02
	9.779312604150581e-02
	4.879470319808915e-01
	1.392412799868449e-01
	7.002164462478631e-01
	1.000000000000000e+00
	2.000000000000000e+00
	7.955715412665314e-01
	3.000000000000000e+00
	8.760572032576653e-01
	4.000000000000000e+00
	0.000000000000000e+00
	0.000000000000000e+00
	0.000000000000000e+00
	0.000000000000000e+00
	0.000000000000000e+00
	0.000000000000000e+00
	0.000000000000000e+00
	2.230041175456975e-01
	1.571692433002123e-01
	9.127313096930720e-02
	2.354162848147355e-03
	2.356516035538540e-03
	9.118193976785467e-02
	2.227810953996254e-01
	1.570121800751689e-01
	4.094237835929224e-01
	4.089968566017991e-01
	3.522409222904848e-01
	3.518842597305999e-01
	2.882629666940975e-01
	2.885523285363751e-01
	9.118193976854889e-05
	2.354162847818348e-06
	1.570121800819213e-04
	2.227810954809508e-04
	2.386937548137132e-05
	4.089969628995614e-04
	3.518842714365677e-04
	2.882629677006977e-04
	-5.632066834263434e-04
	-4.740136875445356e-04
	-3.855677948398064e-04
	-2.975183615945081e-04
	-2.099455674984256e-04
	-4.876694933515319e-05
	-1.237889098811559e-04
7		6.400000000000002e-04
	4.089969628996585e-01
	0.000000000000000e+00
	2.882629677006688e-01
	2.386937548139964e-02
	9.515381541820060e-01
	2.886206486941265e-01
	5.000000000000000e+00
	6.000000000000000e+00
	1.022856280782418e+00
	3.518842714366088e-01
	3.520869758960113e-01
	4.091494087408759e-01
	7.000000000000000e+00
	1.086329824023492e+00
	1.570121800819930e-01
	1.586470419664285e-01
	2.227810954810115e-01
	2.234888566617255e-01
	2.354162847820350e-03
	9.118193976853360e-02
	9.779312604149082e-02
	4.879470319808912e-01
	1.392412799868491e-01
	7.002164462478486e-01
	1.000000000000000e+00
	2.000000000000000e+00
	7.955715412666050e-01
	3.000000000000000e+00
	8.760572032577240e-01
	4.000000000000000e+00
	0.000000000000000e+00
	0.000000000000000e+00
	0.000000000000000e+00
	0.000000000000000e+00
	0.000000000000000e+00
	0.000000000000000e+00
	0.000000000000000e+00
	2.230041175457582e-01
	1.571692433002840e-01
	9.127313096929193e-02
	2.354162848149358e-03
	2.356516035540542e-03
	9.118193976783937e-02
	2.227810953996862e-01
	1.570121800752406e-01
	4.094237835930195e-01
	4.089968566018964e-01
	3.522409222905260e-01
	3.518842597306410e-01
	2.882629666940685e-01
	2.885523285363462e-01
	9.118193976853360e-05
	2.354162847820350e-06
	1.570121800819930e-04
	2.227810954810115e-04
	2.386937548139964e-05
	4.089969628996585e-04
	3.518842714366088e-04
	2.882629677006688e-04
	-5.632066834263340e-04
	-4.740136875445317e-04
	-3.855677948398090e-04
	-2.975183615945025e-04
	-2.099455674984186e-04
	-4.876694933515322e-05
	-1.237889098811573e-04
8		1.280000000000000e-03
	4.089969628995750e-01
	0.000000000000000e+00
	2.882629677006579e-01
	2.386937548137755e-02
	9.515381541819936e-01
	2.886206486941154e-01
	5.000000000000000e+00
	6.000000000000000e+00
	1.022856280782419e+00
	3.518842714366112e-01
	3.520869758960135e-01
	4.091494087407928e-01
	7.000000000000000e+00
	1.086329824023408e+00
	1.570121800819530e-01
	1.586470419663891e-01
	2.227810954810027e-01
	2.234888566617170e-01
	2.354162847821626e-03
	9.118193976853826e-02
	9.779312604149590e-02
	4.879470319809075e-01
	1.392412799868551e-01
	7.002164462478511e-01
	1.000000000000000e+00
	2.000000000000000e+00
	7.955715412665659e-01
	3.000000000000000e+00
	8.760572032577154e-01
	4.000000000000000e+00
	0.000000000000000e+00
	0.000000000000000e+00
	0.000000000000000e+00
	0.000000000000000e+00
	0.000000000000000e+00
	0.000000000000000e+00
	0.000000000000000e+00
	2.230041175457494e-01
	1.571692433002440e-01
	9.127313096929660e-02
	2.354162848150634e-03
	2.356516035541819e-03
	9.118193976784407e-02
	2.227810953996774e-01
	1.570121800752007e-01
	4.094237835929361e-01
	4.089968566018128e-01
	3.522409222905283e-01
	3.518842597306434e-01
	2.882629666940576e-01
	2.885523285363353e-01
	9.118193976853826e-05
	2.354162847821626e-06
	1.570121800819530e-04
	2.227810954810027e-04
	2.386937548137756e-05
	4.089969628995750e-04
	3.518842714366112e-04
	2.882629677006579e-04
	-5.632066834263421e-04
	-4.740136875445316e-04
	-3.855677948398101e-04
	-2.975183615945033e-04
	-2.099455674984223e-04
	-4.876694933515167e-05
	-1.237889098811570e-04
9		2.280000000000001e-03
	4.089969628997492e-01
	0.000000000000000e+00
	2.882629677006918e-01
	2.386937548142323e-02
	9.515381541820273e-01
	2.886206486941495e-01
	5.000000000000000e+00
	6.000000000000000e+00
	1.022856280782412e+00
	3.518842714366033e-01
	3.520869758960060e-01
	4.091494087409662e-01
	7.000000000000000e+00
	1.086329824023581e+00
	1.570121800819411e-01
	1.586470419663773e-01
	2.227810954809431e-01
	2.234888566616577e-01
	2.354162847818275e-03
	9.118193976857410e-02
	9.779312604153018e-02
	4.879470319808810e-01
	1.392412799868491e-01
	7.002164462478861e-01
	1.000000000000000e+00
	2.000000000000000e+00
	7.955715412665547e-01
	3.000000000000000e+00
	8.760572032576565e-01
	4.000000000000000e+00
	0.000000000000000e+00
	0.000000000000000e+00
	0.000000000000000e+00
	0.000000000000000e+00
	0.000000000000000e+00
	0.000000000000000e+00
	0.000000000000000e+00
	2.230041175456899e-01
	1.571692433002321e-01
	9.127313096933240e-02
	2.354162848147283e-03
	2.356516035538467e-03
	9.118193976787989e-02
	2.227810953996178e-01
	1.570121800751887e-01
	4.094237835931102e-01
	4.089968566019871e-01
	3.522409222905205e-01
	3.518842597306356e-01
	2.882629666940916e-01
	2.885523285363694e-01
	9.118193976857410e-05
	2.354162847818275e-06
	1.570121800819412e-04
	2.227810954809431e-04
	2.386937548142323e-05
	4.089969628997492e-04
	3.518842714366033e-04
	2.882629677006918e-04
	-5.632066834263255e-04
	-4.740136875445322e-04
	-3.855677948398069e-04
	-2.975183615945089e-04
	-2.099455674984234e-04
	-4.876694933515419e-05
	-1.237889098811537e-04
10		3.280000000000001e-03
	4.089969628996721e-01
	0.000000000000000e+00
	2.882629677006883e-01
	2.386937548140640e-02
	9.515381541820236e-01
	2.886206486941461e-01
	5.000000000000000e+00
	6.000000000000000e+00
	1.022856280782462e+00
	3.518842714366534e-01
	3.520869758960559e-01
	4.091494087408892e-01
	7.000000000000000e+00
	1.086329824023504e+00
	1.570121800819564e-01
	1.586470419663923e-01
	2.227810954809429e-01
	2.234888566616575e-01
	2.354162847816934e-03
	9.118193976857698e-02
	9.779312604153192e-02
	4.879470319808661e-01
	1.392412799868464e-01
	7.002164462478930e-01
	1.000000000000000e+00
	2.000000000000000e+00
	7.955715412665724e-01
	3.000000000000000e+00
	8.760572032576587e-01
	4.000000000000000e+00
	0.000000000000000e+00
	0.000000000000000e+00
	0.000000000000000e+00
	0.000000000000000e+00
	0.000000000000000e+00
	0.000000000000000e+00
	0.000000000000000e+00
	2.230041175456897e-01
	1.571692433002473e-01
	9.127313096933529e-02
	2.354162848145941e-03
	2.356516035537124e-03
	9.118193976788277e-02
	2.227810953996176e-01
	1.570121800752040e-01
	4.094237835930331e-01
	4.089968566019100e-01
	3.522409222905706e-01
	3.518842597306857e-01
	2.882629666940881e-01
	2.885523285363659e-01
	9.118193976857698e-05
	2.354162847816934e-06
	1.570121800819564e-04
	2.227810954809429e-04
	2.386937548140640e-05
	4.089969628996721e-04
	3.518842714366534e-04
	2.882629677006883e-04
	-5.632066834263329e-04
	-4.740136875445275e-04
	-3.855677948398073e-04
	-2.975183615945087e-04
	-2.099455674984217e-04
	-4.876694933515561e-05
	-1.237889098811531e-04
11		4.280000000000001e-03
	4.089969628997479e-01
	0.000000000000000e+00
	2.882629677006840e-01
	2.386937548142231e-02
	9.515381541820176e-01
	2.886206486941418e-01
	5.000000000000000e+00
	6.000000000000000e+00
