Title: kicad schematic
Date: Sat Oct 25 19:52:46  2025
Plotname: Transient Analysis
Flags: real
No. Variables: 67
No. Points: 508     
Variables:
	0	time	time
	1	v(net-_x1-pad5_)	voltage
	2	v(net-_x1-pad7_)	voltage
	3	v(net-_x1-pad6_)	voltage
	4	v(net-_x1-pad4_)	voltage
	5	v(net-_x1-pad1_)	voltage
	6	v(net-_x1-pad3_)	voltage
	7	v(net-_x1-pad2_)	voltage
	8	v(c)	voltage
	9	v(net-_r6-pad2_)	voltage
	10	v(d)	voltage
	11	v(net-_r5-pad2_)	voltage
	12	v(e)	voltage
	13	v(net-_r4-pad2_)	voltage
	14	v(b)	voltage
	15	v(net-_r7-pad2_)	voltage
	16	v(a)	voltage
	17	v(net-_u8-pad1_)	voltage
	18	v(com)	voltage
	19	v(x1.net-_q10-pad2_)	voltage
	20	v(x1.net-_q10-pad3_)	voltage
	21	v(x1.net-_q11-pad2_)	voltage
	22	v(f)	voltage
	23	v(x1.net-_q11-pad3_)	voltage
	24	v(g)	voltage
	25	v(x1.net-_q12-pad2_)	voltage
	26	v(x1.net-_q9-pad2_)	voltage
	27	v(x1.net-_q3-pad3_)	voltage
	28	v(x1.net-_q4-pad3_)	voltage
	29	v(x1.net-_q2-pad3_)	voltage
	30	v(x1.net-_q1-pad2_)	voltage
	31	v(x1.net-_q1-pad3_)	voltage
	32	v(x1.net-_q2-pad2_)	voltage
	33	v(x1.net-_q3-pad2_)	voltage
	34	v(x1.net-_q4-pad2_)	voltage
	35	v(net-_r3-pad2_)	voltage
	36	v(net-_r1-pad2_)	voltage
	37	v(net-_r2-pad2_)	voltage
	38	v(q.x1.q4#collCX)	voltage
	39	v(q.x1.q3#collCX)	voltage
	40	v(q.x1.q2#collCX)	voltage
	41	v(q.x1.q5#collCX)	voltage
	42	v(q.x1.q1#collCX)	voltage
	43	v(q.x1.q6#collCX)	voltage
	44	v(q.x1.q8#collCX)	voltage
	45	v(q.x1.q7#collCX)	voltage
	46	v(q.x1.q9#collCX)	voltage
	47	v(q.x1.q12#collCX)	voltage
	48	v(q.x1.q11#collCX)	voltage
	49	v(q.x1.q14#collCX)	voltage
	50	v(q.x1.q13#collCX)	voltage
	51	v(q.x1.q10#collCX)	voltage
	52	i(v_u2)	current
	53	i(v_u1)	current
	54	i(v_u8)	current
	55	i(v_u7)	current
	56	i(v_u6)	current
	57	i(v_u4)	current
	58	i(v_u5)	current
	59	i(v_u3)	current
	60	i(v2)	current
	61	i(v3)	current
	62	i(v1)	current
	63	i(v4)	current
	64	i(v6)	current
	65	i(v7)	current
	66	i(v5)	current
Values:
0		0.000000000000000e+00
	2.500000000000000e+01
	3.500000000000000e+01
	3.000000000000000e+01
	2.000000000000000e+01
	5.000000000000000e+00
	1.500000000000000e+01
	1.000000000000000e+01
	6.356501050060201e-01
	0.000000000000000e+00
	6.481725795683134e-01
	0.000000000000000e+00
	6.564198948791751e-01
	0.000000000000000e+00
	6.103505603932802e-01
	0.000000000000000e+00
	4.062238395546285e-01
	0.000000000000000e+00
	2.510638982396234e-01
	1.391560374962571e+00
	6.582840257976541e-01
	1.408024788290247e+00
	6.625162910413334e-01
	6.648910021694180e-01
	6.673168806492791e-01
	6.701911027497747e-01
	1.422339387146005e+00
	6.364116897592831e-01
	6.495061581215955e-01
	6.104352055330438e-01
	1.068325956059940e+00
	4.059214779134014e-01
	1.302056607244700e+00
	1.345369694289761e+00
	1.371666123495413e+00
	0.000000000000000e+00
	0.000000000000000e+00
	0.000000000000000e+00
	6.497241639512331e-01
	6.367345243781957e-01
	6.109738242108964e-01
	4.062237457277457e-01
	4.064629749553516e-01
	6.100960979288572e-01
	6.470256188207426e-01
	6.349570954026328e-01
	6.702791466538156e-01
	6.647834295288823e-01
	6.650075179494029e-01
	6.604472599028294e-01
	6.548133921175557e-01
	6.584407542143522e-01
	3.925393415583994e-04
	1.476846460233079e-04
	2.389551997380168e-04
	3.590297414078118e-04
	3.739118264741295e-04
	3.861293499289265e-04
	3.812779879813608e-04
	3.897154653184314e-04
	-8.283755612147905e-04
	-1.300440981496213e-03
	-3.744451470419105e-04
	-1.774127035857580e-03
	-2.723045258258072e-03
	-3.197872439319428e-03
	-2.248422821432136e-03
1		1.000000000000000e-06
	2.500000000000000e+01
	3.500000000000000e+01
	3.000000000000000e+01
	2.000000000000000e+01
	5.000000000000000e+00
	1.500000000000000e+01
	1.000000000000000e+01
	6.356501050058568e-01
	0.000000000000000e+00
	6.481725795681812e-01
	0.000000000000000e+00
	6.564198948790509e-01
	0.000000000000000e+00
	6.103505603930585e-01
	0.000000000000000e+00
	4.062238395547505e-01
	0.000000000000000e+00
	2.510638983037423e-01
	1.391560374962447e+00
	6.582840257975303e-01
	1.408024788290150e+00
	6.625162910412352e-01
	6.648910021693205e-01
	6.673168806491807e-01
	6.701911027496761e-01
	1.422339387145907e+00
	6.364116897591199e-01
	6.495061581214634e-01
	6.104352055328232e-01
	1.068325956060062e+00
	4.059214779135228e-01
	1.302056607244479e+00
	1.345369694289597e+00
	1.371666123495279e+00
	0.000000000000000e+00
	0.000000000000000e+00
	0.000000000000000e+00
	6.497241639511009e-01
	6.367345243780322e-01
	6.109738242106750e-01
	4.062237457278675e-01
	4.064629749554735e-01
	6.100960979286377e-01
	6.470256188206162e-01
	6.349570954024738e-01
	6.702791466537171e-01
	6.647834295287935e-01
	6.650075179493051e-01
	6.604472599027390e-01
	6.548133921174392e-01
	6.584407542142281e-01
	3.925393415583416e-04
	1.476846460610249e-04
	2.389551997380885e-04
	3.590297414076814e-04
	3.739118264740334e-04
	3.861293499288534e-04
	3.812779879812830e-04
	3.897154653183736e-04
	-8.283755612148115e-04
	-1.300440981496229e-03
	-3.744451470418989e-04
	-1.774127035857592e-03
	-2.723045258258081e-03
	-3.197872439319438e-03
	-2.248422821432148e-03
2		2.000000000000001e-06
	2.500000000000000e+01
	3.500000000000000e+01
	3.000000000000000e+01
	2.000000000000000e+01
	5.000000000000000e+00
	1.500000000000000e+01
	1.000000000000000e+01
	6.356501050058556e-01
	0.000000000000000e+00
	6.481725795681809e-01
	0.000000000000000e+00
	6.564198948790524e-01
	0.000000000000000e+00
	6.103505603930528e-01
	0.000000000000000e+00
	4.062238395548571e-01
	0.000000000000000e+00
	2.510638983041171e-01
	1.391560374962447e+00
	6.582840257975315e-01
	1.408024788290149e+00
	6.625162910412341e-01
	6.648910021693191e-01
	6.673168806491895e-01
	6.701911027496857e-01
	1.422339387145916e+00
	6.364116897591187e-01
	6.495061581214631e-01
	6.104352055328175e-01
	1.068325956060167e+00
	4.059214779136286e-01
	1.302056607244473e+00
	1.345369694289597e+00
	1.371666123495279e+00
	0.000000000000000e+00
	0.000000000000000e+00
	0.000000000000000e+00
	6.497241639511006e-01
	6.367345243780311e-01
	6.109738242106693e-01
	4.062237457279741e-01
	4.064629749555800e-01
	6.100960979286321e-01
	6.470256188206158e-01
	6.349570954024727e-01
	6.702791466537265e-01
	6.647834295288012e-01
	6.650075179493039e-01
	6.604472599027380e-01
	6.548133921174407e-01
	6.584407542142294e-01
	3.925393415583467e-04
	1.476846460612454e-04
	2.389551997381512e-04
	3.590297414076781e-04
	3.739118264740327e-04
	3.861293499288543e-04
	3.812779879812828e-04
	3.897154653183730e-04
	-8.283755612148122e-04
	-1.300440981496229e-03
	-3.744451470418889e-04
	-1.774127035857592e-03
	-2.723045258258081e-03
	-3.197872439319437e-03
	-2.248422821432148e-03
3		4.000000000000002e-06
	2.500000000000000e+01
	3.500000000000000e+01
	3.000000000000000e+01
	2.000000000000000e+01
	5.000000000000000e+00
	1.500000000000000e+01
	1.000000000000000e+01
	6.356501050058545e-01
	0.000000000000000e+00
	6.481725795681763e-01
	0.000000000000000e+00
	6.564198948790496e-01
	0.000000000000000e+00
	6.103505603930607e-01
	0.000000000000000e+00
	4.062238395546162e-01
	0.000000000000000e+00
	2.510638983041185e-01
	1.391560374962444e+00
	6.582840257975284e-01
	1.408024788290147e+00
	6.625162910412320e-01
	6.648910021693171e-01
	6.673168806491824e-01
	6.701911027496781e-01
	1.422339387145909e+00
	6.364116897591177e-01
	6.495061581214584e-01
	6.104352055328253e-01
	1.068325956059927e+00
	4.059214779133895e-01
	1.302056607244480e+00
	1.345369694289597e+00
	1.371666123495276e+00
	0.000000000000000e+00
	0.000000000000000e+00
	0.000000000000000e+00
	6.497241639510959e-01
	6.367345243780300e-01
	6.109738242106771e-01
	4.062237457277332e-01
	4.064629749553393e-01
	6.100960979286398e-01
	6.470256188206115e-01
	6.349570954024716e-01
	6.702791466537189e-01
	6.647834295287949e-01
	6.650075179493018e-01
	6.604472599027360e-01
	6.548133921174379e-01
	6.584407542142265e-01
	3.925393415583426e-04
	1.476846460612461e-04
	2.389551997380095e-04
	3.590297414076827e-04
	3.739118264740321e-04
	3.861293499288527e-04
	3.812779879812801e-04
	3.897154653183717e-04
	-8.283755612148114e-04
	-1.300440981496229e-03
	-3.744451470419117e-04
	-1.774127035857593e-03
	-2.723045258258081e-03
	-3.197872439319438e-03
	-2.248422821432148e-03
4		8.000000000000003e-06
	2.500000000000000e+01
	3.500000000000000e+01
	3.000000000000000e+01
	2.000000000000000e+01
	5.000000000000000e+00
	1.500000000000000e+01
	1.000000000000000e+01
	6.356501050058450e-01
	0.000000000000000e+00
	6.481725795681743e-01
	0.000000000000000e+00
	6.564198948790564e-01
	0.000000000000000e+00
	6.103505603930758e-01
	0.000000000000000e+00
	4.062238395545119e-01
	0.000000000000000e+00
	2.510638983041155e-01
	1.391560374962451e+00
	6.582840257975353e-01
	1.408024788290145e+00
	6.625162910412316e-01
	6.648910021693164e-01
	6.673168806491845e-01
	6.701911027496801e-01
	1.422339387145910e+00
	6.364116897591086e-01
	6.495061581214568e-01
	6.104352055328404e-01
	1.068325956059825e+00
	4.059214779132853e-01
	1.302056607244495e+00
	1.345369694289586e+00
	1.371666123495273e+00
	0.000000000000000e+00
	0.000000000000000e+00
	0.000000000000000e+00
	6.497241639510941e-01
	6.367345243780207e-01
	6.109738242106922e-01
	4.062237457276290e-01
	4.064629749552350e-01
	6.100960979286549e-01
	6.470256188206095e-01
	6.349570954024623e-01
	6.702791466537209e-01
	6.647834295287969e-01
	6.650075179493011e-01
	6.604472599027356e-01
	6.548133921174445e-01
	6.584407542142334e-01
	3.925393415583438e-04
	1.476846460612444e-04
	2.389551997379482e-04
	3.590297414076916e-04
	3.739118264740264e-04
	3.861293499288566e-04
	3.812779879812790e-04
	3.897154653183715e-04
	-8.283755612148100e-04
	-1.300440981496230e-03
	-3.744451470419214e-04
	-1.774127035857593e-03
	-2.723045258258081e-03
	-3.197872439319437e-03
	-2.248422821432148e-03
5		1.600000000000001e-05
	2.500000000000000e+01
	3.500000000000000e+01
	3.000000000000000e+01
	2.000000000000000e+01
	5.000000000000000e+00
	1.500000000000000e+01
	1.000000000000000e+01
	6.356501050058492e-01
	0.000000000000000e+00
	6.481725795681742e-01
	0.000000000000000e+00
	6.564198948790571e-01
	0.000000000000000e+00
	6.103505603930652e-01
	0.000000000000000e+00
	4.062238395548150e-01
	0.000000000000000e+00
	2.510638983041198e-01
	1.391560374962451e+00
	6.582840257975362e-01
	1.408024788290147e+00
	6.625162910412322e-01
	6.648910021693172e-01
	6.673168806491840e-01
	6.701911027496795e-01
	1.422339387145910e+00
	6.364116897591128e-01
	6.495061581214563e-01
	6.104352055328299e-01
	1.068325956060125e+00
	4.059214779135870e-01
	1.302056607244484e+00
	1.345369694289592e+00
	1.371666123495274e+00
	0.000000000000000e+00
	0.000000000000000e+00
	0.000000000000000e+00
	6.497241639510940e-01
	6.367345243780250e-01
	6.109738242106817e-01
	4.062237457279321e-01
	4.064629749555380e-01
	6.100960979286443e-01
	6.470256188206094e-01
	6.349570954024663e-01
	6.702791466537206e-01
	6.647834295287963e-01
	6.650075179493020e-01
	6.604472599027362e-01
	6.548133921174450e-01
	6.584407542142343e-01
	3.925393415583435e-04
	1.476846460612470e-04
	2.389551997381265e-04
	3.590297414076854e-04
	3.739118264740289e-04
	3.861293499288571e-04
	3.812779879812789e-04
	3.897154653183718e-04
	-8.283755612148111e-04
	-1.300440981496229e-03
	-3.744451470418928e-04
	-1.774127035857593e-03
	-2.723045258258081e-03
	-3.197872439319437e-03
	-2.248422821432148e-03
6		3.200000000000001e-05
	2.500000000000000e+01
	3.500000000000000e+01
	3.000000000000000e+01
	2.000000000000000e+01
	5.000000000000000e+00
	1.500000000000000e+01
	1.000000000000000e+01
	6.356501050058539e-01
	0.000000000000000e+00
	6.481725795681771e-01
	0.000000000000000e+00
	6.564198948790512e-01
	0.000000000000000e+00
	6.103505603930335e-01
	0.000000000000000e+00
	4.062238395546842e-01
	0.000000000000000e+00
	2.510638983041132e-01
	1.391560374962446e+00
	6.582840257975303e-01
	1.408024788290147e+00
	6.625162910412317e-01
	6.648910021693170e-01
	6.673168806491822e-01
	6.701911027496777e-01
	1.422339387145909e+00
	6.364116897591177e-01
	6.495061581214597e-01
	6.104352055327980e-01
	1.068325956059995e+00
	4.059214779134566e-01
	1.302056607244453e+00
	1.345369694289596e+00
	1.371666123495276e+00
	0.000000000000000e+00
	0.000000000000000e+00
	0.000000000000000e+00
	6.497241639510969e-01
	6.367345243780297e-01
	6.109738242106499e-01
	4.062237457278012e-01
	4.064629749554072e-01
	6.100960979286129e-01
	6.470256188206124e-01
	6.349570954024709e-01
	6.702791466537186e-01
	6.647834295287947e-01
	6.650075179493016e-01
	6.604472599027356e-01
	6.548133921174395e-01
	6.584407542142282e-01
	3.925393415583424e-04
	1.476846460612431e-04
	2.389551997380495e-04
	3.590297414076667e-04
	3.739118264740317e-04
	3.861293499288536e-04
	3.812779879812806e-04
	3.897154653183715e-04
	-8.283755612148140e-04
	-1.300440981496229e-03
	-3.744451470419052e-04
	-1.774127035857593e-03
	-2.723045258258081e-03
	-3.197872439319438e-03
	-2.248422821432148e-03
7		6.400000000000002e-05
	2.500000000000000e+01
	3.500000000000000e+01
	3.000000000000000e+01
	2.000000000000000e+01
	5.000000000000000e+00
	1.500000000000000e+01
	1.000000000000000e+01
	6.356501050058383e-01
	0.000000000000000e+00
	6.481725795681801e-01
	0.000000000000000e+00
	6.564198948790553e-01
	0.000000000000000e+00
	6.103505603930839e-01
	0.000000000000000e+00
	4.062238395547182e-01
	0.000000000000000e+00
	2.510638983041205e-01
	1.391560374962449e+00
	6.582840257975345e-01
	1.408024788290152e+00
	6.625162910412368e-01
	6.648910021693221e-01
	6.673168806491825e-01
	6.701911027496782e-01
	1.422339387145908e+00
	6.364116897591012e-01
	6.495061581214624e-01
	6.104352055328484e-01
	1.068325956060029e+00
	4.059214779134905e-01
	1.302056607244503e+00
	1.345369694289581e+00
	1.371666123495278e+00
	0.000000000000000e+00
	0.000000000000000e+00
	0.000000000000000e+00
	6.497241639510998e-01
	6.367345243780138e-01
	6.109738242107003e-01
	4.062237457278353e-01
	4.064629749554411e-01
	6.100960979286628e-01
	6.470256188206152e-01
	6.349570954024557e-01
	6.702791466537190e-01
	6.647834295287950e-01
	6.650075179493067e-01
	6.604472599027402e-01
	6.548133921174433e-01
	6.584407542142323e-01
	3.925393415583426e-04
	1.476846460612473e-04
	2.389551997380695e-04
	3.590297414076964e-04
	3.739118264740225e-04
	3.861293499288560e-04
	3.812779879812824e-04
	3.897154653183745e-04
	-8.283755612148092e-04
	-1.300440981496230e-03
	-3.744451470419020e-04
	-1.774127035857593e-03
	-2.723045258258081e-03
	-3.197872439319438e-03
	-2.248422821432148e-03
8		1.280000000000000e-04
	2.500000000000000e+01
	3.500000000000000e+01
	3.000000000000000e+01
	2.000000000000000e+01
	5.000000000000000e+00
	1.500000000000000e+01
	1.000000000000000e+01
	6.356501050058545e-01
	0.000000000000000e+00
	6.481725795681798e-01
	0.000000000000000e+00
	6.564198948790541e-01
	0.000000000000000e+00
	6.103505603930550e-01
	0.000000000000000e+00
	4.062238395547732e-01
	0.000000000000000e+00
	2.510638983041147e-01
	1.391560374962449e+00
	6.582840257975330e-01
	1.408024788290144e+00
	6.625162910412281e-01
	6.648910021693130e-01
	6.673168806491820e-01
	6.701911027496776e-01
	1.422339387145908e+00
	6.364116897591179e-01
	6.495061581214621e-01
	6.104352055328198e-01
	1.068325956060084e+00
	4.059214779135449e-01
	1.302056607244476e+00
	1.345369694289596e+00
	1.371666123495279e+00
	0.000000000000000e+00
	0.000000000000000e+00
	0.000000000000000e+00
	6.497241639510994e-01
	6.367345243780301e-01
	6.109738242106716e-01
	4.062237457278903e-01
	4.064629749554962e-01
	6.100960979286344e-01
	6.470256188206148e-01
	6.349570954024716e-01
	6.702791466537186e-01
	6.647834295287944e-01
	6.650075179492979e-01
	6.604472599027325e-01
	6.548133921174423e-01
	6.584407542142311e-01
	3.925393415583423e-04
	1.476846460612439e-04
	2.389551997381018e-04
	3.590297414076794e-04
	3.739118264740321e-04
	3.861293499288553e-04
	3.812779879812822e-04
	3.897154653183695e-04
	-8.283755612148118e-04
	-1.300440981496229e-03
	-3.744451470418968e-04
	-1.774127035857592e-03
	-2.723045258258081e-03
	-3.197872439319438e-03
	-2.248422821432148e-03
9		2.280000000000001e-04
	2.500000000000000e+01
	3.500000000000000e+01
	3.000000000000000e+01
	2.000000000000000e+01
	5.000000000000000e+00
	1.500000000000000e+01
	1.000000000000000e+01
	6.356501050058533e-01
	0.000000000000000e+00
	6.481725795681781e-01
	0.000000000000000e+00
	6.564198948790509e-01
	0.000000000000000e+00
	6.103505603930699e-01
	0.000000000000000e+00
	4.062238395545893e-01
	0.000000000000000e+00
	2.510638983041180e-01
	1.391560374962443e+00
	6.582840257975299e-01
	1.408024788290142e+00
	6.625162910412282e-01
	6.648910021693134e-01
	6.673168806491787e-01
	6.701911027496742e-01
	1.422339387145904e+00
	6.364116897591162e-01
	6.495061581214601e-01
	6.104352055328346e-01
	1.068325956059901e+00
	4.059214779133628e-01
	1.302056607244489e+00
	1.345369694289595e+00
	1.371666123495277e+00
	0.000000000000000e+00
	0.000000000000000e+00
	0.000000000000000e+00
	6.497241639510978e-01
	6.367345243780288e-01
	6.109738242106864e-01
	4.062237457277064e-01
	4.064629749553123e-01
	6.100960979286492e-01
	6.470256188206133e-01
	6.349570954024703e-01
	6.702791466537151e-01
	6.647834295287914e-01
	6.650075179492980e-01
	6.604472599027325e-01
	6.548133921174392e-01
	6.584407542142280e-01
	3.925393415583404e-04
	1.476846460612458e-04
	2.389551997379937e-04
	3.590297414076881e-04
	3.739118264740313e-04
	3.861293499288534e-04
	3.812779879812812e-04
	3.897154653183695e-04
	-8.283755612148105e-04
	-1.300440981496229e-03
	-3.744451470419142e-04
	-1.774127035857593e-03
	-2.723045258258081e-03
	-3.197872439319438e-03
	-2.248422821432148e-03
10		3.280000000000002e-04
	2.500000000000000e+01
	3.500000000000000e+01
	3.000000000000000e+01
	2.000000000000000e+01
	5.000000000000000e+00
	1.500000000000000e+01
	1.000000000000000e+01
	6.356501050058582e-01
	0.000000000000000e+00
	6.481725795681795e-01
	0.000000000000000e+00
	6.564198948790552e-01
	0.000000000000000e+00
	6.103505603930857e-01
	0.000000000000000e+00
	4.062238395546619e-01
	0.000000000000000e+00
	2.510638983041170e-01
	1.391560374962450e+00
	6.582840257975345e-01
	1.408024788290145e+00
	6.625162910412298e-01
	6.648910021693152e-01
	6.673168806491812e-01
	6.701911027496764e-01
	1.422339387145908e+00
	6.364116897591215e-01
	6.495061581214613e-01
	6.104352055328505e-01
	1.068325956059972e+00
	4.059214779134343e-01
	1.302056607244504e+00
	1.345369694289600e+00
	1.371666123495278e+00
	0.000000000000000e+00
	0.000000000000000e+00
	0.000000000000000e+00
	6.497241639510990e-01
	6.367345243780338e-01
	6.109738242107021e-01
	4.062237457277790e-01
	4.064629749553848e-01
	6.100960979286647e-01
	6.470256188206145e-01
	6.349570954024750e-01
	6.702791466537175e-01
	6.647834295287939e-01
	6.650075179492998e-01
	6.604472599027339e-01
	6.548133921174430e-01
	6.584407542142323e-01
	3.925393415583418e-04
	1.476846460612453e-04
	2.389551997380364e-04
	3.590297414076974e-04
	3.739118264740342e-04
	3.861293499288559e-04
	3.812779879812820e-04
	3.897154653183704e-04
	-8.283755612148091e-04
	-1.300440981496229e-03
	-3.744451470419074e-04
	-1.774127035857593e-03
	-2.723045258258081e-03
	-3.197872439319438e-03
	-2.248422821432148e-03
11		4.280000000000002e-04
	2.500000000000000e+01
	3.500000000000000e+01
	3.000000000000000e+01
	2.000000000000000e+01
	5.000000000000000e+00
	1.500000000000000e+01
	1.000000000000000e+01
	6.356501050058525e-01
